# About

- The APB protocol is the low-cost interface, optimized for minimal power consumption and reduced interface complexity.
- The APB interface is not pipelined and is a simple, synchronous protocol. Every transfer takes at least two cycles to complete.
- The APB interface is designed for accessing the programmable control registers of peripheral devices.
APB peripherals are typically connected to the main memory system using an APB bridge. For example, a bridge from 
AXI to APB could be used to connect a number of APB peripherals to an AXI memory system.
- APB transfers are initiated by an APB bridge. APB bridges can also be referred to as a Requester. A peripheral 
interface responds to requests. APB peripherals can also be referred to as a Completer. This specification will use 
Requester and Completer

# Signal descriptions

| Signal      | Source           |           Width | Description                                                                                                                                                                                                                                            |
| ----------- | ---------------- | --------------: | ------------------------------------------------------------------------------------------------------------------------------------------------------------------------------------------------------------------------------------------------------ |
| **PCLK**    | Clock            |               1 | **Clock.** PCLK is a clock signal. All APB signals are timed against the rising edge of PCLK.                                                                                                                                                          |
| **PRESETn** | System bus reset |               1 | **Reset.** PRESETn is the reset signal and is active-LOW. PRESETn is normally connected directly to the system bus reset signal.                                                                                                                       |
| **PADDR**   | Requester        |      ADDR_WIDTH | **Address.** PADDR is the APB address bus. PADDR can be up to 32 bits wide.                                                                                                                                                                            |
| **PPROT**   | Requester        |               3 | **Protection type.** Indicates the normal, privileged, or secure protection level of the transaction and whether the transaction is a data access or an instruction access.                                                                            |
| **PNSE**    | Requester        |               1 | **Extension to protection type.** Used as an extension to the protection type, related to Realm Management Extension (RME).                                                                                                                            |
| **PSELx**   | Requester        |               1 | **Select.** The Requester generates a PSELx signal for each Completer. PSELx indicates that the Completer is selected and that a data transfer is required.                                                                                            |
| **PENABLE** | Requester        |               1 | **Enable.** PENABLE indicates the second and subsequent cycles of an APB transfer.                                                                                                                                                                     |
| **PWRITE**  | Requester        |               1 | **Direction.** PWRITE indicates an APB write access when HIGH and an APB read access when LOW.                                                                                                                                                         |
| **PWDATA**  | Requester        |      DATA_WIDTH | **Write data.** The PWDATA write data bus is driven by the APB bridge Requester during write cycles when PWRITE is HIGH. PWDATA can be 8 bits, 16 bits, or 32 bits wide.                                                                               |
| **PSTRB**   | Requester        |    DATA_WIDTH/8 | **Write strobe.** PSTRB indicates which byte lanes to update during a write transfer. There is one write strobe for each 8 bits of the write data bus. PSTRB[n] corresponds to PWDATA[(8n + 7):(8n)]. PSTRB must not be active during a read transfer. |
| **PREADY**  | Completer        |               1 | **Ready.** PREADY is used by the Completer to extend an APB transfer.                                                                                                                                                                                  |
| **PRDATA**  | Completer        |      DATA_WIDTH | **Read data.** The PRDATA read data bus is driven by the selected Completer during read cycles when PWRITE is LOW. PRDATA can be 8 bits, 16 bits, or 32 bits wide.                                                                                     |
| **PSLVERR** | Completer        |               1 | **Transfer error.** Optional signal that can be asserted HIGH by the Completer to indicate an error condition on an APB transfer.                                                                                                                      |
| **PWAKEUP** | Requester        |               1 | **Wake-up.** Indicates any activity associated with an APB interface.                                                                                                                                                                                  |
| **PAUSER**  | Requester        |  USER_REQ_WIDTH | **User request attribute.** Recommended maximum width is 128 bits.                                                                                                                                                                                     |
| **PWUSER**  | Requester        | USER_DATA_WIDTH | **User write data attribute.** Recommended maximum width is DATA_WIDTH/2.                                                                                                                                                                              |
| **PRUSER**  | Completer        | USER_DATA_WIDTH | **User read data attribute.** Recommended maximum width is DATA_WIDTH/2.                                                                                                                                                                               |
| **PBUSER**  | Completer        | USER_RESP_WIDTH | **User response attribute.** Recommended maximum width is 16 bits.                                                                                                                                                                                     |
